T126C 000:045.943   SEGGER J-Link V7.22b Log File
T126C 000:046.033   DLL Compiled: Jun 17 2021 17:22:49
T126C 000:046.037   Logging started @ 2023-12-04 08:13
T126C 000:046.040 - 46.042ms
T126C 000:046.047 JLINK_SetWarnOutHandler(...)
T126C 000:046.052 - 0.006ms
T126C 000:046.056 JLINK_OpenEx(...)
T126C 000:047.685   Firmware: J-Link ARM-OB STM32 compiled Aug 22 2012 19:52:04
T126C 000:048.362   Firmware: J-Link ARM-OB STM32 compiled Aug 22 2012 19:52:04
T126C 000:051.776   Hardware: V7.00
T126C 000:051.785   S/N: 20090929
T126C 000:051.790   OEM: SEGGER
T126C 000:051.795   Feature(s): RDI,FlashDL,FlashBP,JFlash,GDBFull
T126C 000:053.468   TELNET listener socket opened on port 19021
T126C 000:053.523   WEBSRV Starting webserver
T126C 000:053.669   WEBSRV Webserver running on local port 19080
T126C 000:053.678 - 7.625ms returns "O.K."
T126C 000:053.692 JLINK_GetEmuCaps()
T126C 000:053.696 - 0.005ms returns 0x88EA5833
T126C 000:053.705 JLINK_TIF_GetAvailable(...)
T126C 000:054.165 - 0.469ms
T126C 000:054.177 JLINK_SetErrorOutHandler(...)
T126C 000:054.180 - 0.005ms
T126C 000:054.190 JLINK_ExecCommand("ProjectFile = "D:\qq临时文件\接收的东西\IPC学习板测试程序标准库\USER\JLinkSettings.ini"", ...). 
T126C 000:062.465   Device "CORTEX-M4" selected.
T126C 000:062.737 - 8.550ms returns 0x00
T126C 000:064.554 JLINK_ExecCommand("Device = STM32F407VETx", ...). 
T126C 000:066.420   Device "STM32F407VE" selected.
T126C 000:066.652 - 2.092ms returns 0x00
T126C 000:066.666 JLINK_GetHardwareVersion()
T126C 000:066.670 - 0.005ms returns 70000
T126C 000:066.675 JLINK_GetDLLVersion()
T126C 000:066.679 - 0.005ms returns 72202
T126C 000:066.683 JLINK_GetOEMString(...)
T126C 000:066.687 JLINK_GetFirmwareString(...)
T126C 000:066.693 - 0.007ms
T126C 000:071.141 JLINK_GetDLLVersion()
T126C 000:071.150 - 0.010ms returns 72202
T126C 000:071.154 JLINK_GetCompileDateTime()
T126C 000:071.158 - 0.005ms
T126C 000:072.406 JLINK_GetFirmwareString(...)
T126C 000:072.414 - 0.009ms
T126C 000:073.670 JLINK_GetHardwareVersion()
T126C 000:073.678 - 0.009ms returns 70000
T126C 000:075.063 JLINK_GetSN()
T126C 000:075.074 - 0.011ms returns 20090929
T126C 000:076.379 JLINK_GetOEMString(...)
T126C 000:078.919 JLINK_TIF_Select(JLINKARM_TIF_SWD)
T126C 000:080.127 - 1.212ms returns 0x00
T126C 000:080.134 JLINK_HasError()
T126C 000:080.144 JLINK_SetSpeed(5000)
T126C 000:080.480 - 0.342ms
T126C 000:080.489 JLINK_GetId()
T126C 000:082.351   InitTarget() start
T126C 000:082.380    J-Link Script File: Executing InitTarget()
T126C 000:119.240   InitTarget() end
T126C 000:122.226   Found SW-DP with ID 0x2BA01477
T126C 000:130.954   Old FW that does not support reading DPIDR via DAP jobs
T126C 000:140.830   DPv0 detected
T126C 000:142.089   Scanning AP map to find all available APs
T126C 000:149.277   AP[1]: Stopped AP scan as end of AP map has been reached
T126C 000:150.575   AP[0]: AHB-AP (IDR: 0x24770011)
T126C 000:151.879   Iterating through AP map to find AHB-AP to use
T126C 000:162.634   AP[0]: Core found
T126C 000:163.928   AP[0]: AHB-AP ROM base: 0xE00FF000
T126C 000:170.062   CPUID register: 0x410FC241. Implementer code: 0x41 (ARM)
T126C 000:171.359   Found Cortex-M4 r0p1, Little endian.
T126C 000:273.785   -- Max. mem block: 0x00002C18
T126C 000:274.246   CPU_ReadMem(4 bytes @ 0xE000EDF0)
T126C 000:275.065   CPU_ReadMem(4 bytes @ 0xE0002000)
T126C 000:277.578   FPUnit: 6 code (BP) slots and 2 literal slots
T126C 000:277.593   CPU_ReadMem(4 bytes @ 0xE000EDFC)
T126C 000:278.510   CPU_WriteMem(4 bytes @ 0xE000EDFC)
T126C 000:279.404   CPU_ReadMem(4 bytes @ 0xE0001000)
T126C 000:280.152   CPU_WriteMem(4 bytes @ 0xE0001000)
T126C 000:280.984   CPU_ReadMem(4 bytes @ 0xE000ED88)
T126C 000:281.776   CPU_WriteMem(4 bytes @ 0xE000ED88)
T126C 000:282.579   CPU_ReadMem(4 bytes @ 0xE000ED88)
T126C 000:283.337   CPU_WriteMem(4 bytes @ 0xE000ED88)
T126C 000:285.570   CoreSight components:
T126C 000:286.835   ROMTbl[0] @ E00FF000
T126C 000:286.845   CPU_ReadMem(64 bytes @ 0xE00FF000)
T126C 000:288.169   CPU_ReadMem(32 bytes @ 0xE000EFE0)
T126C 000:290.597   ROMTbl[0][0]: E000E000, CID: B105E00D, PID: 000BB00C SCS-M7
T126C 000:290.608   CPU_ReadMem(32 bytes @ 0xE0001FE0)
T126C 000:292.897   ROMTbl[0][1]: E0001000, CID: B105E00D, PID: 003BB002 DWT
T126C 000:292.907   CPU_ReadMem(32 bytes @ 0xE0002FE0)
T126C 000:295.590   ROMTbl[0][2]: E0002000, CID: B105E00D, PID: 002BB003 FPB
T126C 000:295.601   CPU_ReadMem(32 bytes @ 0xE0000FE0)
T126C 000:297.850   ROMTbl[0][3]: E0000000, CID: B105E00D, PID: 003BB001 ITM
T126C 000:297.860   CPU_ReadMem(32 bytes @ 0xE0040FE0)
T126C 000:300.177   ROMTbl[0][4]: E0040000, CID: B105900D, PID: 000BB9A1 TPIU
T126C 000:300.188   CPU_ReadMem(32 bytes @ 0xE0041FE0)
T126C 000:302.561   ROMTbl[0][5]: E0041000, CID: B105900D, PID: 000BB925 ETM
T126C 000:303.624 - 223.137ms returns 0x2BA01477
T126C 000:303.636 JLINK_GetDLLVersion()
T126C 000:303.640 - 0.005ms returns 72202
T126C 000:303.644 JLINK_CORE_GetFound()
T126C 000:303.647 - 0.004ms returns 0xE0000FF
T126C 000:303.652 JLINK_GetDebugInfo(0x100 = JLINKARM_ROM_TABLE_ADDR_INDEX)
T126C 000:303.656   Value=0xE00FF000
T126C 000:303.660 - 0.010ms returns 0
T126C 000:304.996 JLINK_GetDebugInfo(0x100 = JLINKARM_ROM_TABLE_ADDR_INDEX)
T126C 000:305.005   Value=0xE00FF000
T126C 000:305.009 - 0.014ms returns 0
T126C 000:305.013 JLINK_GetDebugInfo(0x101 = JLINKARM_DEBUG_INFO_ETM_ADDR_INDEX)
T126C 000:305.016   Value=0xE0041000
T126C 000:305.021 - 0.009ms returns 0
T126C 000:305.027 JLINK_ReadMemEx(0xE0041FD0, 0x20 Bytes, Flags = 0x02000004)
T126C 000:305.042   CPU_ReadMem(32 bytes @ 0xE0041FD0)
T126C 000:306.101   Data:  04 00 00 00 00 00 00 00 00 00 00 00 00 00 00 00 ...
T126C 000:306.106 - 1.080ms returns 32 (0x20)
T126C 000:306.111 JLINK_GetDebugInfo(0x102 = JLINKARM_DEBUG_INFO_MTB_ADDR_INDEX)
T126C 000:306.114   Value=0x00000000
T126C 000:306.118 - 0.009ms returns 0
T126C 000:306.122 JLINK_GetDebugInfo(0x103 = JLINKARM_DEBUG_INFO_TPIU_ADDR_INDEX)
T126C 000:306.125   Value=0xE0040000
T126C 000:306.129 - 0.009ms returns 0
T126C 000:306.133 JLINK_GetDebugInfo(0x104 = JLINKARM_DEBUG_INFO_ITM_ADDR_INDEX)
T126C 000:306.136   Value=0xE0000000
T126C 000:306.141 - 0.009ms returns 0
T126C 000:306.144 JLINK_GetDebugInfo(0x105 = JLINKARM_DEBUG_INFO_DWT_ADDR_INDEX)
T126C 000:306.147   Value=0xE0001000
T126C 000:306.152 - 0.009ms returns 0
T126C 000:306.155 JLINK_GetDebugInfo(0x106 = JLINKARM_DEBUG_INFO_FPB_ADDR_INDEX)
T126C 000:306.159   Value=0xE0002000
T126C 000:306.163 - 0.009ms returns 0
T126C 000:306.167 JLINK_GetDebugInfo(0x107 = JLINKARM_DEBUG_INFO_NVIC_ADDR_INDEX)
T126C 000:306.170   Value=0xE000E000
T126C 000:306.174 - 0.008ms returns 0
T126C 000:306.178 JLINK_GetDebugInfo(0x10C = JLINKARM_DEBUG_INFO_DBG_ADDR_INDEX)
T126C 000:306.181   Value=0xE000EDF0
T126C 000:306.186 - 0.009ms returns 0
T126C 000:306.189 JLINK_GetDebugInfo(0x01 = Unknown)
T126C 000:306.193   Value=0x00000001
T126C 000:306.198 - 0.009ms returns 0
T126C 000:306.201 JLINK_ReadMemU32(0xE000ED00, 0x1 Items)
T126C 000:306.206   CPU_ReadMem(4 bytes @ 0xE000ED00)
T126C 000:306.947   Data:  41 C2 0F 41
T126C 000:306.953   Debug reg: CPUID
T126C 000:306.957 - 0.757ms returns 1 (0x1)
T126C 000:306.962 JLINK_GetDebugInfo(0x10F = JLINKARM_DEBUG_INFO_HAS_CORTEX_M_SECURITY_EXT_INDEX)
T126C 000:306.965   Value=0x00000000
T126C 000:306.969 - 0.009ms returns 0
T126C 000:306.974 JLINK_HasError()
T126C 000:306.978 JLINK_SetResetType(JLINKARM_CM3_RESET_TYPE_NORMAL)
T126C 000:306.981 - 0.004ms returns JLINKARM_CM3_RESET_TYPE_NORMAL
T126C 000:306.985 JLINK_Reset()
T126C 000:306.994   CPU is running
T126C 000:306.999   CPU_WriteMem(4 bytes @ 0xE000EDF0)
T126C 000:307.778   CPU is running
T126C 000:307.794   CPU_WriteMem(4 bytes @ 0xE000EDFC)
T126C 000:309.778   Reset: Halt core after reset via DEMCR.VC_CORERESET.
T126C 000:311.928   Reset: Reset device via AIRCR.SYSRESETREQ.
T126C 000:311.938   CPU is running
T126C 000:311.945   CPU_WriteMem(4 bytes @ 0xE000ED0C)
T126C 000:365.636   CPU_ReadMem(4 bytes @ 0xE000EDF0)
T126C 000:366.381   CPU_ReadMem(4 bytes @ 0xE000EDF0)
T126C 000:367.047   CPU is running
T126C 000:367.054   CPU_WriteMem(4 bytes @ 0xE000EDF0)
T126C 000:367.965   CPU is running
T126C 000:367.970   CPU_WriteMem(4 bytes @ 0xE000EDFC)
T126C 000:374.420   CPU_ReadMem(4 bytes @ 0xE000EDF0)
T126C 000:378.959   CPU_WriteMem(4 bytes @ 0xE0002000)
T126C 000:379.696   CPU_ReadMem(4 bytes @ 0xE000EDFC)
T126C 000:380.448   CPU_ReadMem(4 bytes @ 0xE0001000)
T126C 000:381.269 - 74.287ms
T126C 000:381.281 JLINK_Halt()
T126C 000:381.284 - 0.005ms returns 0x00
T126C 000:381.289 JLINK_ReadMemU32(0xE000EDF0, 0x1 Items)
T126C 000:381.299   CPU_ReadMem(4 bytes @ 0xE000EDF0)
T126C 000:382.262   Data:  03 00 03 00
T126C 000:382.268   Debug reg: DHCSR
T126C 000:382.272 - 0.984ms returns 1 (0x1)
T126C 000:382.278 JLINK_WriteU32_64(0xE000EDF0, 0xA05F0003)
T126C 000:382.284   Debug reg: DHCSR
T126C 000:382.585   CPU_WriteMem(4 bytes @ 0xE000EDF0)
T126C 000:383.463 - 1.189ms returns 0 (0x00000000)
T126C 000:383.474 JLINK_WriteU32_64(0xE000EDFC, 0x01000000)
T126C 000:383.478   Debug reg: DEMCR
T126C 000:383.487   CPU_WriteMem(4 bytes @ 0xE000EDFC)
T126C 000:384.336 - 0.872ms returns 0 (0x00000000)
T126C 000:389.767 JLINK_GetHWStatus(...)
T126C 000:390.195 - 0.430ms returns 0
T126C 000:394.136 JLINK_GetNumBPUnits(Type = 0xFFFFFF00)
T126C 000:394.144 - 0.010ms returns 0x06
T126C 000:394.148 JLINK_GetNumBPUnits(Type = 0xF0)
T126C 000:394.152 - 0.005ms returns 0x2000
T126C 000:394.156 JLINK_GetNumWPUnits()
T126C 000:394.159 - 0.004ms returns 4
T126C 000:397.994 JLINK_GetSpeed()
T126C 000:398.002 - 0.009ms returns 4000
T126C 000:400.984 JLINK_ReadMemU32(0xE000E004, 0x1 Items)
T126C 000:400.997   CPU_ReadMem(4 bytes @ 0xE000E004)
T126C 000:401.736   Data:  02 00 00 00
T126C 000:401.741 - 0.759ms returns 1 (0x1)
T126C 000:401.746 JLINK_ReadMemU32(0xE000E004, 0x1 Items)
T126C 000:401.751   CPU_ReadMem(4 bytes @ 0xE000E004)
T126C 000:402.476   Data:  02 00 00 00
T126C 000:402.481 - 0.736ms returns 1 (0x1)
T126C 000:402.485 JLINK_WriteMemEx(0xE0001000, 0x0000001C Bytes, Flags = 0x02000004)
T126C 000:402.489   Data:  01 00 00 00 00 00 00 00 00 00 00 00 00 00 00 00 ...
T126C 000:402.498   CPU_WriteMem(28 bytes @ 0xE0001000)
T126C 000:403.526 - 1.043ms returns 0x1C
T126C 000:403.535 JLINK_Halt()
T126C 000:403.538 - 0.005ms returns 0x00
T126C 000:403.542 JLINK_IsHalted()
T126C 000:403.546 - 0.006ms returns TRUE
T126C 000:405.589 JLINK_WriteMem(0x20000000, 0x188 Bytes, ...)
T126C 000:405.596   Data:  00 BE 0A E0 0D 78 2D 06 68 40 08 24 40 00 00 D3 ...
T126C 000:405.795   CPU_WriteMem(392 bytes @ 0x20000000)
T126C 000:411.215 - 5.629ms returns 0x188
T126C 000:411.276 JLINK_HasError()
T126C 000:411.282 JLINK_WriteReg(R0, 0x08000000)
T126C 000:411.294 - 0.013ms returns 0
T126C 000:411.298 JLINK_WriteReg(R1, 0x00B71B00)
T126C 000:411.302 - 0.005ms returns 0
T126C 000:411.306 JLINK_WriteReg(R2, 0x00000001)
T126C 000:411.309 - 0.005ms returns 0
T126C 000:411.313 JLINK_WriteReg(R3, 0x00000000)
T126C 000:411.317 - 0.005ms returns 0
T126C 000:411.321 JLINK_WriteReg(R4, 0x00000000)
T126C 000:411.324 - 0.005ms returns 0
T126C 000:411.328 JLINK_WriteReg(R5, 0x00000000)
T126C 000:411.331 - 0.005ms returns 0
T126C 000:411.335 JLINK_WriteReg(R6, 0x00000000)
T126C 000:411.338 - 0.005ms returns 0
T126C 000:411.342 JLINK_WriteReg(R7, 0x00000000)
T126C 000:411.346 - 0.005ms returns 0
T126C 000:411.349 JLINK_WriteReg(R8, 0x00000000)
T126C 000:411.356 - 0.007ms returns 0
T126C 000:411.360 JLINK_WriteReg(R9, 0x20000184)
T126C 000:411.363 - 0.005ms returns 0
T126C 000:411.367 JLINK_WriteReg(R10, 0x00000000)
T126C 000:411.370 - 0.005ms returns 0
T126C 000:411.374 JLINK_WriteReg(R11, 0x00000000)
T126C 000:411.378 - 0.005ms returns 0
T126C 000:411.381 JLINK_WriteReg(R12, 0x00000000)
T126C 000:411.385 - 0.005ms returns 0
T126C 000:411.390 JLINK_WriteReg(R13 (SP), 0x20001000)
T126C 000:411.394 - 0.005ms returns 0
T126C 000:411.398 JLINK_WriteReg(R14, 0x20000001)
T126C 000:411.402 - 0.005ms returns 0
T126C 000:411.405 JLINK_WriteReg(R15 (PC), 0x2000005E)
T126C 000:411.414 - 0.011ms returns 0
T126C 000:411.419 JLINK_WriteReg(XPSR, 0x01000000)
T126C 000:411.422 - 0.005ms returns 0
T126C 000:411.426 JLINK_WriteReg(MSP, 0x20001000)
T126C 000:411.429 - 0.004ms returns 0
T126C 000:411.433 JLINK_WriteReg(PSP, 0x20001000)
T126C 000:411.437 - 0.005ms returns 0
T126C 000:411.441 JLINK_WriteReg(CFBP, 0x00000000)
T126C 000:411.444 - 0.005ms returns 0
T126C 000:411.448 JLINK_SetBPEx(Addr = 0x20000000, Type = 0xFFFFFFF2)
T126C 000:411.455   CPU_ReadMem(2 bytes @ 0x20000000)
T126C 000:412.220 - 0.774ms returns 0x00000001
T126C 000:412.225 JLINK_Go()
T126C 000:412.230   CPU_WriteMem(2 bytes @ 0x20000000)
T126C 000:413.040   CPU_ReadMem(4 bytes @ 0xE0001000)
T126C 000:413.779   CPU_WriteMem(4 bytes @ 0xE0002008)
T126C 000:413.802   CPU_WriteMem(4 bytes @ 0xE000200C)
T126C 000:413.810   CPU_WriteMem(4 bytes @ 0xE0002010)
T126C 000:413.814   CPU_WriteMem(4 bytes @ 0xE0002014)
T126C 000:413.819   CPU_WriteMem(4 bytes @ 0xE0002018)
T126C 000:413.824   CPU_WriteMem(4 bytes @ 0xE000201C)
T126C 000:416.571   CPU_WriteMem(4 bytes @ 0xE0001004)
T126C 000:420.990 - 8.766ms
T126C 000:420.995 JLINK_IsHalted()
T126C 000:424.694   CPU_ReadMem(2 bytes @ 0x20000000)
T126C 000:425.468 - 4.475ms returns TRUE
T126C 000:425.475 JLINK_ReadReg(R15 (PC))
T126C 000:425.479 - 0.006ms returns 0x20000000
T126C 000:425.484 JLINK_ClrBPEx(BPHandle = 0x00000001)
T126C 000:425.487 - 0.005ms returns 0x00
T126C 000:425.491 JLINK_ReadReg(R0)
T126C 000:425.495 - 0.005ms returns 0x00000000
T126C 000:425.667 JLINK_HasError()
T126C 000:425.674 JLINK_WriteReg(R0, 0x08000000)
T126C 000:425.679 - 0.006ms returns 0
T126C 000:425.683 JLINK_WriteReg(R1, 0x00004000)
T126C 000:425.686 - 0.005ms returns 0
T126C 000:425.690 JLINK_WriteReg(R2, 0x000000FF)
T126C 000:425.694 - 0.005ms returns 0
T126C 000:425.697 JLINK_WriteReg(R3, 0x00000000)
T126C 000:425.701 - 0.004ms returns 0
T126C 000:425.705 JLINK_WriteReg(R4, 0x00000000)
T126C 000:425.708 - 0.004ms returns 0
T126C 000:425.712 JLINK_WriteReg(R5, 0x00000000)
T126C 000:425.715 - 0.005ms returns 0
T126C 000:425.719 JLINK_WriteReg(R6, 0x00000000)
T126C 000:425.722 - 0.005ms returns 0
T126C 000:425.726 JLINK_WriteReg(R7, 0x00000000)
T126C 000:425.730 - 0.005ms returns 0
T126C 000:425.734 JLINK_WriteReg(R8, 0x00000000)
T126C 000:425.737 - 0.005ms returns 0
T126C 000:425.741 JLINK_WriteReg(R9, 0x20000184)
T126C 000:425.744 - 0.005ms returns 0
T126C 000:425.748 JLINK_WriteReg(R10, 0x00000000)
T126C 000:425.752 - 0.005ms returns 0
T126C 000:425.756 JLINK_WriteReg(R11, 0x00000000)
T126C 000:425.759 - 0.005ms returns 0
T126C 000:425.763 JLINK_WriteReg(R12, 0x00000000)
T126C 000:425.766 - 0.005ms returns 0
T126C 000:425.770 JLINK_WriteReg(R13 (SP), 0x20001000)
T126C 000:425.774 - 0.005ms returns 0
T126C 000:425.778 JLINK_WriteReg(R14, 0x20000001)
T126C 000:425.781 - 0.005ms returns 0
T126C 000:425.785 JLINK_WriteReg(R15 (PC), 0x20000020)
T126C 000:425.788 - 0.005ms returns 0
T126C 000:425.792 JLINK_WriteReg(XPSR, 0x01000000)
T126C 000:425.796 - 0.005ms returns 0
T126C 000:425.799 JLINK_WriteReg(MSP, 0x20001000)
T126C 000:425.803 - 0.005ms returns 0
T126C 000:425.807 JLINK_WriteReg(PSP, 0x20001000)
T126C 000:425.810 - 0.004ms returns 0
T126C 000:425.814 JLINK_WriteReg(CFBP, 0x00000000)
T126C 000:425.817 - 0.005ms returns 0
T126C 000:425.821 JLINK_SetBPEx(Addr = 0x20000000, Type = 0xFFFFFFF2)
T126C 000:425.825 - 0.005ms returns 0x00000002
T126C 000:425.829 JLINK_Go()
T126C 000:425.837   CPU_ReadMem(4 bytes @ 0xE0001000)
T126C 000:430.199 - 4.376ms
T126C 000:430.210 JLINK_IsHalted()
T126C 000:430.956 - 0.757ms returns FALSE
T126C 000:430.970 JLINK_HasError()
T126C 000:441.425 JLINK_IsHalted()
T126C 000:442.158 - 0.746ms returns FALSE
T126C 000:442.174 JLINK_HasError()
T126C 000:443.435 JLINK_IsHalted()
T126C 000:444.226 - 0.793ms returns FALSE
T126C 000:444.232 JLINK_HasError()
T126C 000:445.418 JLINK_IsHalted()
T126C 000:449.140   CPU_ReadMem(2 bytes @ 0x20000000)
T126C 000:449.908 - 4.534ms returns TRUE
T126C 000:449.959 JLINK_ReadReg(R15 (PC))
T126C 000:449.964 - 0.007ms returns 0x20000000
T126C 000:449.968 JLINK_ClrBPEx(BPHandle = 0x00000002)
T126C 000:449.972 - 0.005ms returns 0x00
T126C 000:449.976 JLINK_ReadReg(R0)
T126C 000:449.980 - 0.005ms returns 0x00000000
T126C 000:450.291 JLINK_HasError()
T126C 000:450.299 JLINK_WriteReg(R0, 0x08004000)
T126C 000:450.304 - 0.006ms returns 0
T126C 000:450.308 JLINK_WriteReg(R1, 0x00004000)
T126C 000:450.311 - 0.005ms returns 0
T126C 000:450.315 JLINK_WriteReg(R2, 0x000000FF)
T126C 000:450.319 - 0.005ms returns 0
T126C 000:450.323 JLINK_WriteReg(R3, 0x00000000)
T126C 000:450.326 - 0.005ms returns 0
T126C 000:450.330 JLINK_WriteReg(R4, 0x00000000)
T126C 000:450.333 - 0.004ms returns 0
T126C 000:450.337 JLINK_WriteReg(R5, 0x00000000)
T126C 000:450.341 - 0.004ms returns 0
T126C 000:450.344 JLINK_WriteReg(R6, 0x00000000)
T126C 000:450.348 - 0.005ms returns 0
T126C 000:450.352 JLINK_WriteReg(R7, 0x00000000)
T126C 000:450.355 - 0.005ms returns 0
T126C 000:450.359 JLINK_WriteReg(R8, 0x00000000)
T126C 000:450.362 - 0.005ms returns 0
T126C 000:450.366 JLINK_WriteReg(R9, 0x20000184)
T126C 000:450.369 - 0.005ms returns 0
T126C 000:450.373 JLINK_WriteReg(R10, 0x00000000)
T126C 000:450.377 - 0.005ms returns 0
T126C 000:450.381 JLINK_WriteReg(R11, 0x00000000)
T126C 000:450.384 - 0.005ms returns 0
T126C 000:450.388 JLINK_WriteReg(R12, 0x00000000)
T126C 000:450.393 - 0.006ms returns 0
T126C 000:450.397 JLINK_WriteReg(R13 (SP), 0x20001000)
T126C 000:450.400 - 0.005ms returns 0
T126C 000:450.404 JLINK_WriteReg(R14, 0x20000001)
T126C 000:450.408 - 0.005ms returns 0
T126C 000:450.411 JLINK_WriteReg(R15 (PC), 0x20000020)
T126C 000:450.415 - 0.005ms returns 0
T126C 000:450.419 JLINK_WriteReg(XPSR, 0x01000000)
T126C 000:450.423 - 0.005ms returns 0
T126C 000:450.426 JLINK_WriteReg(MSP, 0x20001000)
T126C 000:450.430 - 0.005ms returns 0
T126C 000:450.434 JLINK_WriteReg(PSP, 0x20001000)
T126C 000:450.437 - 0.005ms returns 0
T126C 000:450.441 JLINK_WriteReg(CFBP, 0x00000000)
T126C 000:450.444 - 0.005ms returns 0
T126C 000:450.448 JLINK_SetBPEx(Addr = 0x20000000, Type = 0xFFFFFFF2)
T126C 000:450.453 - 0.006ms returns 0x00000003
T126C 000:450.457 JLINK_Go()
T126C 000:450.466   CPU_ReadMem(4 bytes @ 0xE0001000)
T126C 000:455.076 - 4.621ms
T126C 000:455.081 JLINK_IsHalted()
T126C 000:455.810 - 0.731ms returns FALSE
T126C 000:455.815 JLINK_HasError()
T126C 000:458.425 JLINK_IsHalted()
T126C 000:459.167 - 0.745ms returns FALSE
T126C 000:459.174 JLINK_HasError()
T126C 000:460.418 JLINK_IsHalted()
T126C 000:461.181 - 0.765ms returns FALSE
T126C 000:461.186 JLINK_HasError()
T126C 000:462.430 JLINK_IsHalted()
T126C 000:463.116 - 0.689ms returns FALSE
T126C 000:463.125 JLINK_HasError()
T126C 000:466.430 JLINK_IsHalted()
T126C 000:467.175 - 0.747ms returns FALSE
T126C 000:467.180 JLINK_HasError()
T126C 000:468.415 JLINK_IsHalted()
T126C 000:469.178 - 0.766ms returns FALSE
T126C 000:469.184 JLINK_HasError()
T126C 000:470.398 JLINK_IsHalted()
T126C 000:474.372   CPU_ReadMem(2 bytes @ 0x20000000)
T126C 000:475.081 - 4.687ms returns TRUE
T126C 000:475.089 JLINK_ReadReg(R15 (PC))
T126C 000:475.095 - 0.006ms returns 0x20000000
T126C 000:475.099 JLINK_ClrBPEx(BPHandle = 0x00000003)
T126C 000:475.102 - 0.005ms returns 0x00
T126C 000:475.107 JLINK_ReadReg(R0)
T126C 000:475.110 - 0.005ms returns 0x00000000
T126C 000:475.279 JLINK_HasError()
T126C 000:475.286 JLINK_WriteReg(R0, 0x00000001)
T126C 000:475.291 - 0.006ms returns 0
T126C 000:475.295 JLINK_WriteReg(R1, 0x00004000)
T126C 000:475.299 - 0.005ms returns 0
T126C 000:475.303 JLINK_WriteReg(R2, 0x000000FF)
T126C 000:475.306 - 0.005ms returns 0
T126C 000:475.310 JLINK_WriteReg(R3, 0x00000000)
T126C 000:475.314 - 0.005ms returns 0
T126C 000:475.318 JLINK_WriteReg(R4, 0x00000000)
T126C 000:475.321 - 0.005ms returns 0
T126C 000:475.325 JLINK_WriteReg(R5, 0x00000000)
T126C 000:475.328 - 0.005ms returns 0
T126C 000:475.332 JLINK_WriteReg(R6, 0x00000000)
T126C 000:475.336 - 0.008ms returns 0
T126C 000:475.344 JLINK_WriteReg(R7, 0x00000000)
T126C 000:475.348 - 0.005ms returns 0
T126C 000:475.352 JLINK_WriteReg(R8, 0x00000000)
T126C 000:475.355 - 0.005ms returns 0
T126C 000:475.359 JLINK_WriteReg(R9, 0x20000184)
T126C 000:475.362 - 0.005ms returns 0
T126C 000:475.366 JLINK_WriteReg(R10, 0x00000000)
T126C 000:475.370 - 0.005ms returns 0
T126C 000:475.373 JLINK_WriteReg(R11, 0x00000000)
T126C 000:475.377 - 0.005ms returns 0
T126C 000:475.381 JLINK_WriteReg(R12, 0x00000000)
T126C 000:475.384 - 0.005ms returns 0
T126C 000:475.389 JLINK_WriteReg(R13 (SP), 0x20001000)
T126C 000:475.393 - 0.005ms returns 0
T126C 000:475.397 JLINK_WriteReg(R14, 0x20000001)
T126C 000:475.401 - 0.005ms returns 0
T126C 000:475.405 JLINK_WriteReg(R15 (PC), 0x2000008C)
T126C 000:475.408 - 0.005ms returns 0
T126C 000:475.417 JLINK_WriteReg(XPSR, 0x01000000)
T126C 000:475.421 - 0.005ms returns 0
T126C 000:475.425 JLINK_WriteReg(MSP, 0x20001000)
T126C 000:475.428 - 0.005ms returns 0
T126C 000:475.432 JLINK_WriteReg(PSP, 0x20001000)
T126C 000:475.435 - 0.005ms returns 0
T126C 000:475.439 JLINK_WriteReg(CFBP, 0x00000000)
T126C 000:475.443 - 0.005ms returns 0
T126C 000:475.447 JLINK_SetBPEx(Addr = 0x20000000, Type = 0xFFFFFFF2)
T126C 000:475.451 - 0.005ms returns 0x00000004
T126C 000:475.455 JLINK_Go()
T126C 000:475.463   CPU_ReadMem(4 bytes @ 0xE0001000)
T126C 000:479.975 - 4.523ms
T126C 000:479.981 JLINK_IsHalted()
T126C 000:483.596   CPU_ReadMem(2 bytes @ 0x20000000)
T126C 000:484.438 - 4.464ms returns TRUE
T126C 000:484.448 JLINK_ReadReg(R15 (PC))
T126C 000:484.452 - 0.005ms returns 0x20000000
T126C 000:484.456 JLINK_ClrBPEx(BPHandle = 0x00000004)
T126C 000:484.460 - 0.005ms returns 0x00
T126C 000:484.464 JLINK_ReadReg(R0)
T126C 000:484.468 - 0.005ms returns 0x00000000
T126C 000:539.742 JLINK_WriteMem(0x20000000, 0x188 Bytes, ...)
T126C 000:539.751   Data:  00 BE 0A E0 0D 78 2D 06 68 40 08 24 40 00 00 D3 ...
T126C 000:539.765   CPU_WriteMem(392 bytes @ 0x20000000)
T126C 000:545.413 - 5.679ms returns 0x188
T126C 000:545.472 JLINK_HasError()
T126C 000:545.477 JLINK_WriteReg(R0, 0x08000000)
T126C 000:545.483 - 0.008ms returns 0
T126C 000:545.487 JLINK_WriteReg(R1, 0x00B71B00)
T126C 000:545.491 - 0.005ms returns 0
T126C 000:545.495 JLINK_WriteReg(R2, 0x00000002)
T126C 000:545.499 - 0.005ms returns 0
T126C 000:545.503 JLINK_WriteReg(R3, 0x00000000)
T126C 000:545.506 - 0.005ms returns 0
T126C 000:545.510 JLINK_WriteReg(R4, 0x00000000)
T126C 000:545.514 - 0.005ms returns 0
T126C 000:545.518 JLINK_WriteReg(R5, 0x00000000)
T126C 000:545.521 - 0.005ms returns 0
T126C 000:545.525 JLINK_WriteReg(R6, 0x00000000)
T126C 000:545.529 - 0.005ms returns 0
T126C 000:545.533 JLINK_WriteReg(R7, 0x00000000)
T126C 000:545.536 - 0.005ms returns 0
T126C 000:545.540 JLINK_WriteReg(R8, 0x00000000)
T126C 000:545.545 - 0.006ms returns 0
T126C 000:545.548 JLINK_WriteReg(R9, 0x20000184)
T126C 000:545.552 - 0.004ms returns 0
T126C 000:545.555 JLINK_WriteReg(R10, 0x00000000)
T126C 000:545.559 - 0.005ms returns 0
T126C 000:545.563 JLINK_WriteReg(R11, 0x00000000)
T126C 000:545.566 - 0.004ms returns 0
T126C 000:545.570 JLINK_WriteReg(R12, 0x00000000)
T126C 000:545.573 - 0.005ms returns 0
T126C 000:545.577 JLINK_WriteReg(R13 (SP), 0x20001000)
T126C 000:545.581 - 0.005ms returns 0
T126C 000:545.585 JLINK_WriteReg(R14, 0x20000001)
T126C 000:545.588 - 0.004ms returns 0
T126C 000:545.592 JLINK_WriteReg(R15 (PC), 0x2000005E)
T126C 000:545.596 - 0.005ms returns 0
T126C 000:545.599 JLINK_WriteReg(XPSR, 0x01000000)
T126C 000:545.603 - 0.005ms returns 0
T126C 000:545.606 JLINK_WriteReg(MSP, 0x20001000)
T126C 000:545.610 - 0.004ms returns 0
T126C 000:545.613 JLINK_WriteReg(PSP, 0x20001000)
T126C 000:545.617 - 0.004ms returns 0
T126C 000:545.620 JLINK_WriteReg(CFBP, 0x00000000)
T126C 000:545.624 - 0.004ms returns 0
T126C 000:545.628 JLINK_SetBPEx(Addr = 0x20000000, Type = 0xFFFFFFF2)
T126C 000:545.634   CPU_ReadMem(2 bytes @ 0x20000000)
T126C 000:546.528 - 0.902ms returns 0x00000005
T126C 000:546.536 JLINK_Go()
T126C 000:546.544   CPU_WriteMem(2 bytes @ 0x20000000)
T126C 000:547.556   CPU_ReadMem(4 bytes @ 0xE0001000)
T126C 000:552.071 - 5.538ms
T126C 000:552.078 JLINK_IsHalted()
T126C 000:555.840   CPU_ReadMem(2 bytes @ 0x20000000)
T126C 000:556.550 - 4.475ms returns TRUE
T126C 000:556.563 JLINK_ReadReg(R15 (PC))
T126C 000:556.570 - 0.008ms returns 0x20000000
T126C 000:556.574 JLINK_ClrBPEx(BPHandle = 0x00000005)
T126C 000:556.578 - 0.005ms returns 0x00
T126C 000:556.582 JLINK_ReadReg(R0)
T126C 000:556.586 - 0.005ms returns 0x00000000
T126C 000:556.754 JLINK_WriteMem(0x20000188, 0x278 Bytes, ...)
T126C 000:556.760   Data:  10 15 00 20 9D 2F 00 08 2D 02 00 08 2F 02 00 08 ...
T126C 000:556.771   CPU_WriteMem(632 bytes @ 0x20000188)
T126C 000:564.955 - 8.212ms returns 0x278
T126C 000:564.972 JLINK_WriteMem(0x20000400, 0x188 Bytes, ...)
T126C 000:564.976   Data:  F1 D1 6C 48 00 68 00 F4 00 30 10 B1 01 20 00 90 ...
T126C 000:564.985   CPU_WriteMem(392 bytes @ 0x20000400)
T126C 000:570.426 - 5.459ms returns 0x188
T126C 000:570.436 JLINK_HasError()
T126C 000:570.485 JLINK_WriteReg(R0, 0x08000000)
T126C 000:570.492 - 0.008ms returns 0
T126C 000:570.496 JLINK_WriteReg(R1, 0x00000400)
T126C 000:570.500 - 0.005ms returns 0
T126C 000:570.504 JLINK_WriteReg(R2, 0x20000188)
T126C 000:570.507 - 0.005ms returns 0
T126C 000:570.511 JLINK_WriteReg(R3, 0x00000000)
T126C 000:570.515 - 0.005ms returns 0
T126C 000:570.519 JLINK_WriteReg(R4, 0x00000000)
T126C 000:570.522 - 0.005ms returns 0
T126C 000:570.526 JLINK_WriteReg(R5, 0x00000000)
T126C 000:570.530 - 0.005ms returns 0
T126C 000:570.534 JLINK_WriteReg(R6, 0x00000000)
T126C 000:570.538 - 0.005ms returns 0
T126C 000:570.542 JLINK_WriteReg(R7, 0x00000000)
T126C 000:570.545 - 0.005ms returns 0
T126C 000:570.549 JLINK_WriteReg(R8, 0x00000000)
T126C 000:570.552 - 0.005ms returns 0
T126C 000:570.556 JLINK_WriteReg(R9, 0x20000184)
T126C 000:570.566 - 0.010ms returns 0
T126C 000:570.570 JLINK_WriteReg(R10, 0x00000000)
T126C 000:570.573 - 0.005ms returns 0
T126C 000:570.577 JLINK_WriteReg(R11, 0x00000000)
T126C 000:570.580 - 0.005ms returns 0
T126C 000:570.584 JLINK_WriteReg(R12, 0x00000000)
T126C 000:570.588 - 0.005ms returns 0
T126C 000:570.592 JLINK_WriteReg(R13 (SP), 0x20001000)
T126C 000:570.595 - 0.005ms returns 0
T126C 000:570.599 JLINK_WriteReg(R14, 0x20000001)
T126C 000:570.603 - 0.005ms returns 0
T126C 000:570.607 JLINK_WriteReg(R15 (PC), 0x20000112)
T126C 000:570.611 - 0.005ms returns 0
T126C 000:570.614 JLINK_WriteReg(XPSR, 0x01000000)
T126C 000:570.618 - 0.005ms returns 0
T126C 000:570.622 JLINK_WriteReg(MSP, 0x20001000)
T126C 000:570.625 - 0.005ms returns 0
T126C 000:570.629 JLINK_WriteReg(PSP, 0x20001000)
T126C 000:570.633 - 0.005ms returns 0
T126C 000:570.637 JLINK_WriteReg(CFBP, 0x00000000)
T126C 000:570.640 - 0.005ms returns 0
T126C 000:570.644 JLINK_SetBPEx(Addr = 0x20000000, Type = 0xFFFFFFF2)
T126C 000:570.648 - 0.005ms returns 0x00000006
T126C 000:570.652 JLINK_Go()
T126C 000:570.660   CPU_ReadMem(4 bytes @ 0xE0001000)
T126C 000:575.096 - 4.450ms
T126C 000:575.107 JLINK_IsHalted()
T126C 000:575.841 - 0.749ms returns FALSE
T126C 000:575.860 JLINK_HasError()
T126C 000:579.420 JLINK_IsHalted()
T126C 000:583.175   CPU_ReadMem(2 bytes @ 0x20000000)
T126C 000:583.950 - 4.533ms returns TRUE
T126C 000:583.955 JLINK_ReadReg(R15 (PC))
T126C 000:583.960 - 0.006ms returns 0x20000000
T126C 000:583.964 JLINK_ClrBPEx(BPHandle = 0x00000006)
T126C 000:583.967 - 0.005ms returns 0x00
T126C 000:583.971 JLINK_ReadReg(R0)
T126C 000:583.975 - 0.005ms returns 0x00000000
T126C 000:584.224 JLINK_WriteMem(0x20000188, 0x278 Bytes, ...)
T126C 000:584.231   Data:  12 4E 35 60 03 E0 10 4D 10 4E 35 60 00 BF 00 BF ...
T126C 000:584.240   CPU_WriteMem(632 bytes @ 0x20000188)
T126C 000:592.376 - 8.156ms returns 0x278
T126C 000:592.384 JLINK_WriteMem(0x20000400, 0x188 Bytes, ...)
T126C 000:592.388   Data:  0D 0A 00 00 54 75 72 6E 20 6F 6E 20 79 65 6C 6C ...
T126C 000:592.399   CPU_WriteMem(392 bytes @ 0x20000400)
T126C 000:597.791 - 5.414ms returns 0x188
T126C 000:597.804 JLINK_HasError()
T126C 000:597.832 JLINK_WriteReg(R0, 0x08000400)
T126C 000:597.838 - 0.007ms returns 0
T126C 000:597.842 JLINK_WriteReg(R1, 0x00000400)
T126C 000:597.845 - 0.005ms returns 0
T126C 000:597.849 JLINK_WriteReg(R2, 0x20000188)
T126C 000:597.853 - 0.005ms returns 0
T126C 000:597.857 JLINK_WriteReg(R3, 0x00000000)
T126C 000:597.860 - 0.005ms returns 0
T126C 000:597.864 JLINK_WriteReg(R4, 0x00000000)
T126C 000:597.868 - 0.005ms returns 0
T126C 000:597.871 JLINK_WriteReg(R5, 0x00000000)
T126C 000:597.875 - 0.005ms returns 0
T126C 000:597.879 JLINK_WriteReg(R6, 0x00000000)
T126C 000:597.882 - 0.005ms returns 0
T126C 000:597.886 JLINK_WriteReg(R7, 0x00000000)
T126C 000:597.890 - 0.005ms returns 0
T126C 000:597.894 JLINK_WriteReg(R8, 0x00000000)
T126C 000:597.897 - 0.005ms returns 0
T126C 000:597.901 JLINK_WriteReg(R9, 0x20000184)
T126C 000:597.904 - 0.005ms returns 0
T126C 000:597.908 JLINK_WriteReg(R10, 0x00000000)
T126C 000:597.912 - 0.005ms returns 0
T126C 000:597.916 JLINK_WriteReg(R11, 0x00000000)
T126C 000:597.919 - 0.005ms returns 0
T126C 000:597.923 JLINK_WriteReg(R12, 0x00000000)
T126C 000:597.927 - 0.005ms returns 0
T126C 000:597.931 JLINK_WriteReg(R13 (SP), 0x20001000)
T126C 000:597.934 - 0.005ms returns 0
T126C 000:597.938 JLINK_WriteReg(R14, 0x20000001)
T126C 000:597.942 - 0.005ms returns 0
T126C 000:597.946 JLINK_WriteReg(R15 (PC), 0x20000112)
T126C 000:597.949 - 0.005ms returns 0
T126C 000:597.953 JLINK_WriteReg(XPSR, 0x01000000)
T126C 000:597.957 - 0.005ms returns 0
T126C 000:597.961 JLINK_WriteReg(MSP, 0x20001000)
T126C 000:597.964 - 0.005ms returns 0
T126C 000:597.968 JLINK_WriteReg(PSP, 0x20001000)
T126C 000:597.972 - 0.005ms returns 0
T126C 000:597.975 JLINK_WriteReg(CFBP, 0x00000000)
T126C 000:597.979 - 0.005ms returns 0
T126C 000:597.983 JLINK_SetBPEx(Addr = 0x20000000, Type = 0xFFFFFFF2)
T126C 000:597.987 - 0.005ms returns 0x00000007
T126C 000:597.991 JLINK_Go()
T126C 000:597.999   CPU_ReadMem(4 bytes @ 0xE0001000)
T126C 000:602.428 - 4.440ms
T126C 000:602.435 JLINK_IsHalted()
T126C 000:603.084 - 0.652ms returns FALSE
T126C 000:603.100 JLINK_HasError()
T126C 000:604.418 JLINK_IsHalted()
T126C 000:605.112 - 0.702ms returns FALSE
T126C 000:605.123 JLINK_HasError()
T126C 000:606.402 JLINK_IsHalted()
T126C 000:610.126   CPU_ReadMem(2 bytes @ 0x20000000)
T126C 000:610.920 - 4.520ms returns TRUE
T126C 000:610.927 JLINK_ReadReg(R15 (PC))
T126C 000:610.931 - 0.006ms returns 0x20000000
T126C 000:610.935 JLINK_ClrBPEx(BPHandle = 0x00000007)
T126C 000:610.939 - 0.005ms returns 0x00
T126C 000:610.942 JLINK_ReadReg(R0)
T126C 000:610.946 - 0.004ms returns 0x00000000
T126C 000:611.188 JLINK_WriteMem(0x20000188, 0x278 Bytes, ...)
T126C 000:611.195   Data:  BD E8 F0 81 10 B5 02 46 01 20 00 E0 50 43 0B 1E ...
T126C 000:611.203   CPU_WriteMem(632 bytes @ 0x20000188)
T126C 000:619.459 - 8.278ms returns 0x278
T126C 000:619.471 JLINK_WriteMem(0x20000400, 0x188 Bytes, ...)
T126C 000:619.476   Data:  C1 F8 84 02 20 46 10 BD 1C B5 01 21 04 20 03 F0 ...
T126C 000:619.486   CPU_WriteMem(392 bytes @ 0x20000400)
T126C 000:625.021 - 5.556ms returns 0x188
T126C 000:625.036 JLINK_HasError()
T126C 000:625.041 JLINK_WriteReg(R0, 0x08000800)
T126C 000:625.047 - 0.007ms returns 0
T126C 000:625.051 JLINK_WriteReg(R1, 0x00000400)
T126C 000:625.054 - 0.005ms returns 0
T126C 000:625.058 JLINK_WriteReg(R2, 0x20000188)
T126C 000:625.062 - 0.005ms returns 0
T126C 000:625.066 JLINK_WriteReg(R3, 0x00000000)
T126C 000:625.069 - 0.005ms returns 0
T126C 000:625.075 JLINK_WriteReg(R4, 0x00000000)
T126C 000:625.078 - 0.005ms returns 0
T126C 000:625.197 JLINK_WriteReg(R5, 0x00000000)
T126C 000:625.209 - 0.014ms returns 0
T126C 000:625.214 JLINK_WriteReg(R6, 0x00000000)
T126C 000:625.218 - 0.005ms returns 0
T126C 000:625.222 JLINK_WriteReg(R7, 0x00000000)
T126C 000:625.225 - 0.005ms returns 0
T126C 000:625.229 JLINK_WriteReg(R8, 0x00000000)
T126C 000:625.232 - 0.005ms returns 0
T126C 000:625.280 JLINK_WriteReg(R9, 0x20000184)
T126C 000:625.286 - 0.008ms returns 0
T126C 000:625.290 JLINK_WriteReg(R10, 0x00000000)
T126C 000:625.294 - 0.005ms returns 0
T126C 000:625.298 JLINK_WriteReg(R11, 0x00000000)
T126C 000:625.301 - 0.005ms returns 0
T126C 000:625.305 JLINK_WriteReg(R12, 0x00000000)
T126C 000:625.308 - 0.005ms returns 0
T126C 000:625.312 JLINK_WriteReg(R13 (SP), 0x20001000)
T126C 000:625.316 - 0.005ms returns 0
T126C 000:625.320 JLINK_WriteReg(R14, 0x20000001)
T126C 000:625.323 - 0.005ms returns 0
T126C 000:625.327 JLINK_WriteReg(R15 (PC), 0x20000112)
T126C 000:625.331 - 0.005ms returns 0
T126C 000:625.335 JLINK_WriteReg(XPSR, 0x01000000)
T126C 000:625.338 - 0.005ms returns 0
T126C 000:625.342 JLINK_WriteReg(MSP, 0x20001000)
T126C 000:625.346 - 0.005ms returns 0
T126C 000:625.349 JLINK_WriteReg(PSP, 0x20001000)
T126C 000:625.353 - 0.005ms returns 0
T126C 000:625.357 JLINK_WriteReg(CFBP, 0x00000000)
T126C 000:625.360 - 0.005ms returns 0
T126C 000:625.364 JLINK_SetBPEx(Addr = 0x20000000, Type = 0xFFFFFFF2)
T126C 000:625.369 - 0.006ms returns 0x00000008
T126C 000:625.373 JLINK_Go()
T126C 000:625.383   CPU_ReadMem(4 bytes @ 0xE0001000)
T126C 000:629.979 - 4.612ms
T126C 000:629.990 JLINK_IsHalted()
T126C 000:630.686 - 0.698ms returns FALSE
T126C 000:630.692 JLINK_HasError()
T126C 000:633.422 JLINK_IsHalted()
T126C 000:634.320 - 0.903ms returns FALSE
T126C 000:634.328 JLINK_HasError()
T126C 000:635.418 JLINK_IsHalted()
T126C 000:639.134   CPU_ReadMem(2 bytes @ 0x20000000)
T126C 000:639.950 - 4.534ms returns TRUE
T126C 000:639.956 JLINK_ReadReg(R15 (PC))
T126C 000:639.961 - 0.006ms returns 0x20000000
T126C 000:639.965 JLINK_ClrBPEx(BPHandle = 0x00000008)
T126C 000:639.969 - 0.005ms returns 0x00
T126C 000:639.973 JLINK_ReadReg(R0)
T126C 000:639.976 - 0.005ms returns 0x00000000
T126C 000:640.240 JLINK_WriteMem(0x20000188, 0x278 Bytes, ...)
T126C 000:640.246   Data:  2D E9 F0 41 07 46 0E 46 14 46 F0 B2 C0 F5 80 75 ...
T126C 000:640.256   CPU_WriteMem(632 bytes @ 0x20000188)
T126C 000:648.389 - 8.154ms returns 0x278
T126C 000:648.398 JLINK_WriteMem(0x20000400, 0x188 Bytes, ...)
T126C 000:648.402   Data:  0A 20 01 F0 2F FF BD 48 00 68 20 F4 40 00 BB 49 ...
T126C 000:648.410   CPU_WriteMem(392 bytes @ 0x20000400)
T126C 000:653.795 - 5.400ms returns 0x188
T126C 000:653.805 JLINK_HasError()
T126C 000:653.809 JLINK_WriteReg(R0, 0x08000C00)
T126C 000:653.814 - 0.006ms returns 0
T126C 000:653.818 JLINK_WriteReg(R1, 0x00000400)
T126C 000:653.822 - 0.005ms returns 0
T126C 000:653.826 JLINK_WriteReg(R2, 0x20000188)
T126C 000:653.829 - 0.005ms returns 0
T126C 000:653.833 JLINK_WriteReg(R3, 0x00000000)
T126C 000:653.837 - 0.005ms returns 0
T126C 000:653.842 JLINK_WriteReg(R4, 0x00000000)
T126C 000:653.846 - 0.005ms returns 0
T126C 000:653.871 JLINK_WriteReg(R5, 0x00000000)
T126C 000:653.875 - 0.005ms returns 0
T126C 000:653.879 JLINK_WriteReg(R6, 0x00000000)
T126C 000:653.882 - 0.005ms returns 0
T126C 000:653.886 JLINK_WriteReg(R7, 0x00000000)
T126C 000:653.890 - 0.005ms returns 0
T126C 000:653.893 JLINK_WriteReg(R8, 0x00000000)
T126C 000:653.897 - 0.005ms returns 0
T126C 000:653.901 JLINK_WriteReg(R9, 0x20000184)
T126C 000:653.904 - 0.005ms returns 0
T126C 000:653.908 JLINK_WriteReg(R10, 0x00000000)
T126C 000:653.911 - 0.005ms returns 0
T126C 000:653.915 JLINK_WriteReg(R11, 0x00000000)
T126C 000:653.918 - 0.005ms returns 0
T126C 000:653.922 JLINK_WriteReg(R12, 0x00000000)
T126C 000:653.926 - 0.005ms returns 0
T126C 000:653.929 JLINK_WriteReg(R13 (SP), 0x20001000)
T126C 000:653.933 - 0.005ms returns 0
T126C 000:653.937 JLINK_WriteReg(R14, 0x20000001)
T126C 000:653.940 - 0.005ms returns 0
T126C 000:653.944 JLINK_WriteReg(R15 (PC), 0x20000112)
T126C 000:653.948 - 0.005ms returns 0
T126C 000:653.951 JLINK_WriteReg(XPSR, 0x01000000)
T126C 000:653.955 - 0.005ms returns 0
T126C 000:653.959 JLINK_WriteReg(MSP, 0x20001000)
T126C 000:653.962 - 0.005ms returns 0
T126C 000:653.966 JLINK_WriteReg(PSP, 0x20001000)
T126C 000:653.969 - 0.005ms returns 0
T126C 000:654.008 JLINK_WriteReg(CFBP, 0x00000000)
T126C 000:654.014 - 0.007ms returns 0
T126C 000:654.018 JLINK_SetBPEx(Addr = 0x20000000, Type = 0xFFFFFFF2)
T126C 000:654.023 - 0.006ms returns 0x00000009
T126C 000:654.027 JLINK_Go()
T126C 000:654.035   CPU_ReadMem(4 bytes @ 0xE0001000)
T126C 000:658.505 - 4.489ms
T126C 000:658.520 JLINK_IsHalted()
T126C 000:659.252 - 0.748ms returns FALSE
T126C 000:659.271 JLINK_HasError()
T126C 000:660.397 JLINK_IsHalted()
T126C 000:661.324 - 0.931ms returns FALSE
T126C 000:661.331 JLINK_HasError()
T126C 000:662.421 JLINK_IsHalted()
T126C 000:666.276   CPU_ReadMem(2 bytes @ 0x20000000)
T126C 000:667.044 - 4.625ms returns TRUE
T126C 000:667.049 JLINK_ReadReg(R15 (PC))
T126C 000:667.054 - 0.006ms returns 0x20000000
T126C 000:667.058 JLINK_ClrBPEx(BPHandle = 0x00000009)
T126C 000:667.062 - 0.005ms returns 0x00
T126C 000:667.065 JLINK_ReadReg(R0)
T126C 000:667.069 - 0.004ms returns 0x00000000
T126C 000:667.308 JLINK_WriteMem(0x20000188, 0x278 Bytes, ...)
T126C 000:667.314   Data:  E5 DB 20 46 70 BD 70 B5 05 46 0C 46 FF F7 EE FE ...
T126C 000:667.322   CPU_WriteMem(632 bytes @ 0x20000188)
T126C 000:675.449 - 8.165ms returns 0x278
T126C 000:675.478 JLINK_WriteMem(0x20000400, 0x188 Bytes, ...)
T126C 000:675.482   Data:  0D E0 39 5D 23 48 03 F0 55 F9 00 BF 24 49 89 1C ...
T126C 000:675.491   CPU_WriteMem(392 bytes @ 0x20000400)
T126C 000:680.941 - 5.468ms returns 0x188
T126C 000:680.952 JLINK_HasError()
T126C 000:680.956 JLINK_WriteReg(R0, 0x08001000)
T126C 000:680.961 - 0.006ms returns 0
T126C 000:680.965 JLINK_WriteReg(R1, 0x00000400)
T126C 000:680.970 - 0.006ms returns 0
T126C 000:680.976 JLINK_WriteReg(R2, 0x20000188)
T126C 000:680.980 - 0.005ms returns 0
T126C 000:680.984 JLINK_WriteReg(R3, 0x00000000)
T126C 000:680.989 - 0.006ms returns 0
T126C 000:680.993 JLINK_WriteReg(R4, 0x00000000)
T126C 000:680.996 - 0.005ms returns 0
T126C 000:681.000 JLINK_WriteReg(R5, 0x00000000)
T126C 000:681.003 - 0.005ms returns 0
T126C 000:681.007 JLINK_WriteReg(R6, 0x00000000)
T126C 000:681.010 - 0.005ms returns 0
T126C 000:681.014 JLINK_WriteReg(R7, 0x00000000)
T126C 000:681.018 - 0.005ms returns 0
T126C 000:681.021 JLINK_WriteReg(R8, 0x00000000)
T126C 000:681.025 - 0.005ms returns 0
T126C 000:681.029 JLINK_WriteReg(R9, 0x20000184)
T126C 000:681.032 - 0.005ms returns 0
T126C 000:681.036 JLINK_WriteReg(R10, 0x00000000)
T126C 000:681.039 - 0.005ms returns 0
T126C 000:681.045 JLINK_WriteReg(R11, 0x00000000)
T126C 000:681.048 - 0.005ms returns 0
T126C 000:681.079 JLINK_WriteReg(R12, 0x00000000)
T126C 000:681.083 - 0.005ms returns 0
T126C 000:681.087 JLINK_WriteReg(R13 (SP), 0x20001000)
T126C 000:681.090 - 0.005ms returns 0
T126C 000:681.094 JLINK_WriteReg(R14, 0x20000001)
T126C 000:681.098 - 0.005ms returns 0
T126C 000:681.102 JLINK_WriteReg(R15 (PC), 0x20000112)
T126C 000:681.105 - 0.005ms returns 0
T126C 000:681.109 JLINK_WriteReg(XPSR, 0x01000000)
T126C 000:681.116 - 0.008ms returns 0
T126C 000:681.120 JLINK_WriteReg(MSP, 0x20001000)
T126C 000:681.124 - 0.004ms returns 0
T126C 000:681.127 JLINK_WriteReg(PSP, 0x20001000)
T126C 000:681.131 - 0.004ms returns 0
T126C 000:681.134 JLINK_WriteReg(CFBP, 0x00000000)
T126C 000:681.138 - 0.004ms returns 0
T126C 000:681.141 JLINK_SetBPEx(Addr = 0x20000000, Type = 0xFFFFFFF2)
T126C 000:681.145 - 0.005ms returns 0x0000000A
T126C 000:681.149 JLINK_Go()
T126C 000:681.157   CPU_ReadMem(4 bytes @ 0xE0001000)
T126C 000:685.510 - 4.365ms
T126C 000:685.519 JLINK_IsHalted()
T126C 000:686.244 - 0.729ms returns FALSE
T126C 000:686.250 JLINK_HasError()
T126C 000:689.422 JLINK_IsHalted()
T126C 000:693.219   CPU_ReadMem(2 bytes @ 0x20000000)
T126C 000:693.991 - 4.572ms returns TRUE
T126C 000:693.998 JLINK_ReadReg(R15 (PC))
T126C 000:694.003 - 0.006ms returns 0x20000000
T126C 000:694.007 JLINK_ClrBPEx(BPHandle = 0x0000000A)
T126C 000:694.011 - 0.005ms returns 0x00
T126C 000:694.015 JLINK_ReadReg(R0)
T126C 000:694.018 - 0.005ms returns 0x00000000
T126C 000:694.268 JLINK_WriteMem(0x20000188, 0x278 Bytes, ...)
T126C 000:694.305   Data:  28 46 00 F0 CF F9 06 46 FF 20 00 F0 CB F9 06 46 ...
T126C 000:694.317   CPU_WriteMem(632 bytes @ 0x20000188)
T126C 000:702.424 - 8.159ms returns 0x278
T126C 000:702.432 JLINK_WriteMem(0x20000400, 0x188 Bytes, ...)
T126C 000:702.436   Data:  00 0A 20 EE 20 0A 84 ED 00 0A BD F9 02 00 00 EE ...
T126C 000:702.444   CPU_WriteMem(392 bytes @ 0x20000400)
T126C 000:707.954 - 5.527ms returns 0x188
T126C 000:707.965 JLINK_HasError()
T126C 000:707.970 JLINK_WriteReg(R0, 0x08001400)
T126C 000:707.975 - 0.006ms returns 0
T126C 000:707.979 JLINK_WriteReg(R1, 0x00000400)
T126C 000:707.982 - 0.006ms returns 0
T126C 000:707.987 JLINK_WriteReg(R2, 0x20000188)
T126C 000:707.993 - 0.007ms returns 0
T126C 000:707.997 JLINK_WriteReg(R3, 0x00000000)
T126C 000:708.000 - 0.005ms returns 0
T126C 000:708.004 JLINK_WriteReg(R4, 0x00000000)
T126C 000:708.008 - 0.005ms returns 0
T126C 000:708.012 JLINK_WriteReg(R5, 0x00000000)
T126C 000:708.015 - 0.005ms returns 0
T126C 000:708.019 JLINK_WriteReg(R6, 0x00000000)
T126C 000:708.022 - 0.005ms returns 0
T126C 000:708.026 JLINK_WriteReg(R7, 0x00000000)
T126C 000:708.030 - 0.005ms returns 0
T126C 000:708.033 JLINK_WriteReg(R8, 0x00000000)
T126C 000:708.037 - 0.004ms returns 0
T126C 000:708.041 JLINK_WriteReg(R9, 0x20000184)
T126C 000:708.044 - 0.005ms returns 0
T126C 000:708.048 JLINK_WriteReg(R10, 0x00000000)
T126C 000:708.051 - 0.005ms returns 0
T126C 000:708.057 JLINK_WriteReg(R11, 0x00000000)
T126C 000:708.060 - 0.005ms returns 0
T126C 000:708.090 JLINK_WriteReg(R12, 0x00000000)
T126C 000:708.094 - 0.005ms returns 0
T126C 000:708.098 JLINK_WriteReg(R13 (SP), 0x20001000)
T126C 000:708.102 - 0.005ms returns 0
T126C 000:708.106 JLINK_WriteReg(R14, 0x20000001)
T126C 000:708.109 - 0.005ms returns 0
T126C 000:708.113 JLINK_WriteReg(R15 (PC), 0x20000112)
T126C 000:708.117 - 0.005ms returns 0
T126C 000:708.121 JLINK_WriteReg(XPSR, 0x01000000)
T126C 000:708.124 - 0.005ms returns 0
T126C 000:708.128 JLINK_WriteReg(MSP, 0x20001000)
T126C 000:708.131 - 0.006ms returns 0
T126C 000:708.136 JLINK_WriteReg(PSP, 0x20001000)
T126C 000:708.140 - 0.004ms returns 0
T126C 000:708.144 JLINK_WriteReg(CFBP, 0x00000000)
T126C 000:708.147 - 0.004ms returns 0
T126C 000:708.151 JLINK_SetBPEx(Addr = 0x20000000, Type = 0xFFFFFFF2)
T126C 000:708.155 - 0.005ms returns 0x0000000B
T126C 000:708.159 JLINK_Go()
T126C 000:708.166   CPU_ReadMem(4 bytes @ 0xE0001000)
T126C 000:712.627 - 4.478ms
T126C 000:712.642 JLINK_IsHalted()
T126C 000:713.401 - 0.766ms returns FALSE
T126C 000:713.413 JLINK_HasError()
T126C 000:715.475 JLINK_IsHalted()
T126C 000:716.292 - 0.824ms returns FALSE
T126C 000:716.303 JLINK_HasError()
T126C 000:717.498 JLINK_IsHalted()
T126C 000:721.322   CPU_ReadMem(2 bytes @ 0x20000000)
T126C 000:722.325 - 4.834ms returns TRUE
T126C 000:722.337 JLINK_ReadReg(R15 (PC))
T126C 000:722.343 - 0.007ms returns 0x20000000
T126C 000:722.347 JLINK_ClrBPEx(BPHandle = 0x0000000B)
T126C 000:722.351 - 0.005ms returns 0x00
T126C 000:722.355 JLINK_ReadReg(R0)
T126C 000:722.358 - 0.005ms returns 0x00000000
T126C 000:722.713 JLINK_WriteMem(0x20000188, 0x278 Bytes, ...)
T126C 000:722.721   Data:  8D F8 18 00 00 20 8D F8 1A 00 03 20 8D F8 19 00 ...
T126C 000:722.731   CPU_WriteMem(632 bytes @ 0x20000188)
T126C 000:730.950 - 8.243ms returns 0x278
T126C 000:730.961 JLINK_WriteMem(0x20000400, 0x188 Bytes, ...)
T126C 000:730.965   Data:  FE 48 01 F0 97 FB 01 20 00 90 8D F8 04 00 00 20 ...
T126C 000:730.974   CPU_WriteMem(392 bytes @ 0x20000400)
T126C 000:736.341 - 5.385ms returns 0x188
T126C 000:736.353 JLINK_HasError()
T126C 000:736.358 JLINK_WriteReg(R0, 0x08001800)
T126C 000:736.363 - 0.007ms returns 0
T126C 000:736.368 JLINK_WriteReg(R1, 0x00000400)
T126C 000:736.375 - 0.008ms returns 0
T126C 000:736.388 JLINK_WriteReg(R2, 0x20000188)
T126C 000:736.392 - 0.005ms returns 0
T126C 000:736.395 JLINK_WriteReg(R3, 0x00000000)
T126C 000:736.399 - 0.005ms returns 0
T126C 000:736.403 JLINK_WriteReg(R4, 0x00000000)
T126C 000:736.406 - 0.063ms returns 0
T126C 000:736.473 JLINK_WriteReg(R5, 0x00000000)
T126C 000:736.477 - 0.005ms returns 0
T126C 000:736.481 JLINK_WriteReg(R6, 0x00000000)
T126C 000:736.484 - 0.005ms returns 0
T126C 000:736.488 JLINK_WriteReg(R7, 0x00000000)
T126C 000:736.492 - 0.005ms returns 0
T126C 000:736.496 JLINK_WriteReg(R8, 0x00000000)
T126C 000:736.499 - 0.005ms returns 0
T126C 000:736.503 JLINK_WriteReg(R9, 0x20000184)
T126C 000:736.507 - 0.006ms returns 0
T126C 000:736.512 JLINK_WriteReg(R10, 0x00000000)
T126C 000:736.515 - 0.005ms returns 0
T126C 000:736.519 JLINK_WriteReg(R11, 0x00000000)
T126C 000:736.522 - 0.005ms returns 0
T126C 000:736.526 JLINK_WriteReg(R12, 0x00000000)
T126C 000:736.530 - 0.005ms returns 0
T126C 000:736.534 JLINK_WriteReg(R13 (SP), 0x20001000)
T126C 000:736.539 - 0.007ms returns 0
T126C 000:736.543 JLINK_WriteReg(R14, 0x20000001)
T126C 000:736.547 - 0.005ms returns 0
T126C 000:736.551 JLINK_WriteReg(R15 (PC), 0x20000112)
T126C 000:736.554 - 0.005ms returns 0
T126C 000:736.558 JLINK_WriteReg(XPSR, 0x01000000)
T126C 000:736.562 - 0.005ms returns 0
T126C 000:736.566 JLINK_WriteReg(MSP, 0x20001000)
T126C 000:736.569 - 0.005ms returns 0
T126C 000:736.615 JLINK_WriteReg(PSP, 0x20001000)
T126C 000:736.619 - 0.005ms returns 0
T126C 000:736.623 JLINK_WriteReg(CFBP, 0x00000000)
T126C 000:736.627 - 0.005ms returns 0
T126C 000:736.631 JLINK_SetBPEx(Addr = 0x20000000, Type = 0xFFFFFFF2)
T126C 000:736.635 - 0.006ms returns 0x0000000C
T126C 000:736.640 JLINK_Go()
T126C 000:736.648   CPU_ReadMem(4 bytes @ 0xE0001000)
T126C 000:741.183 - 4.556ms
T126C 000:741.200 JLINK_IsHalted()
T126C 000:741.966 - 0.772ms returns FALSE
T126C 000:741.975 JLINK_HasError()
T126C 000:743.417 JLINK_IsHalted()
T126C 000:744.245 - 0.830ms returns FALSE
T126C 000:744.250 JLINK_HasError()
T126C 000:745.417 JLINK_IsHalted()
T126C 000:749.166   CPU_ReadMem(2 bytes @ 0x20000000)
T126C 000:749.951 - 4.536ms returns TRUE
T126C 000:749.956 JLINK_ReadReg(R15 (PC))
T126C 000:749.961 - 0.006ms returns 0x20000000
T126C 000:749.964 JLINK_ClrBPEx(BPHandle = 0x0000000C)
T126C 000:749.968 - 0.005ms returns 0x00
T126C 000:749.972 JLINK_ReadReg(R0)
T126C 000:749.975 - 0.004ms returns 0x00000000
T126C 000:750.224 JLINK_WriteMem(0x20000188, 0x278 Bytes, ...)
T126C 000:750.231   Data:  01 25 04 E0 FF 20 FF F7 CD FD 60 55 6D 1C BD 42 ...
T126C 000:750.239   CPU_WriteMem(632 bytes @ 0x20000188)
T126C 000:758.375 - 8.155ms returns 0x278
T126C 000:758.383 JLINK_WriteMem(0x20000400, 0x188 Bytes, ...)
T126C 000:758.387   Data:  00 04 02 40 00 10 02 40 90 02 41 42 00 00 41 42 ...
T126C 000:758.396   CPU_WriteMem(392 bytes @ 0x20000400)
T126C 000:763.819 - 5.441ms returns 0x188
T126C 000:763.830 JLINK_HasError()
T126C 000:763.834 JLINK_WriteReg(R0, 0x08001C00)
T126C 000:763.839 - 0.006ms returns 0
T126C 000:763.843 JLINK_WriteReg(R1, 0x00000400)
T126C 000:763.847 - 0.005ms returns 0
T126C 000:763.851 JLINK_WriteReg(R2, 0x20000188)
T126C 000:763.855 - 0.006ms returns 0
T126C 000:763.859 JLINK_WriteReg(R3, 0x00000000)
T126C 000:763.866 - 0.008ms returns 0
T126C 000:763.869 JLINK_WriteReg(R4, 0x00000000)
T126C 000:763.873 - 0.005ms returns 0
T126C 000:763.877 JLINK_WriteReg(R5, 0x00000000)
T126C 000:763.880 - 0.005ms returns 0
T126C 000:763.884 JLINK_WriteReg(R6, 0x00000000)
T126C 000:763.887 - 0.005ms returns 0
T126C 000:763.891 JLINK_WriteReg(R7, 0x00000000)
T126C 000:763.895 - 0.005ms returns 0
T126C 000:763.898 JLINK_WriteReg(R8, 0x00000000)
T126C 000:763.902 - 0.005ms returns 0
T126C 000:763.906 JLINK_WriteReg(R9, 0x20000184)
T126C 000:763.909 - 0.005ms returns 0
T126C 000:763.913 JLINK_WriteReg(R10, 0x00000000)
T126C 000:763.916 - 0.005ms returns 0
T126C 000:763.950 JLINK_WriteReg(R11, 0x00000000)
T126C 000:763.954 - 0.005ms returns 0
T126C 000:763.958 JLINK_WriteReg(R12, 0x00000000)
T126C 000:763.962 - 0.005ms returns 0
T126C 000:763.966 JLINK_WriteReg(R13 (SP), 0x20001000)
T126C 000:763.970 - 0.005ms returns 0
T126C 000:763.974 JLINK_WriteReg(R14, 0x20000001)
T126C 000:764.021 - 0.050ms returns 0
T126C 000:764.026 JLINK_WriteReg(R15 (PC), 0x20000112)
T126C 000:764.030 - 0.005ms returns 0
T126C 000:764.034 JLINK_WriteReg(XPSR, 0x01000000)
T126C 000:764.037 - 0.005ms returns 0
T126C 000:764.041 JLINK_WriteReg(MSP, 0x20001000)
T126C 000:764.045 - 0.004ms returns 0
T126C 000:764.048 JLINK_WriteReg(PSP, 0x20001000)
T126C 000:764.052 - 0.004ms returns 0
T126C 000:764.055 JLINK_WriteReg(CFBP, 0x00000000)
T126C 000:764.059 - 0.004ms returns 0
T126C 000:764.063 JLINK_SetBPEx(Addr = 0x20000000, Type = 0xFFFFFFF2)
T126C 000:764.067 - 0.005ms returns 0x0000000D
T126C 000:764.071 JLINK_Go()
T126C 000:764.078   CPU_ReadMem(4 bytes @ 0xE0001000)
T126C 000:768.460 - 4.393ms
T126C 000:768.468 JLINK_IsHalted()
T126C 000:769.246 - 0.781ms returns FALSE
T126C 000:769.254 JLINK_HasError()
